T5E9C 3393:112 SEGGER J-Link V6.32f Log File (0001ms, 11034ms total)
T5E9C 3393:112 DLL Compiled: Jun 12 2018 14:46:40 (0001ms, 11034ms total)
T5E9C 3393:112 Logging started @ 2019-11-06 00:17 (0001ms, 11034ms total)
T5E9C 3393:113 JLINK_SetWarnOutHandler(...) (0000ms, 11034ms total)
T5E9C 3393:113 JLINK_OpenEx(...)
Firmware: J-Link V9 compiled Apr 20 2018 16:47:26
Hardware: V9.70
S/N: 59700618
Feature(s): RDI, FlashBP, FlashDL, JFlash, GDB
TELNET listener socket opened on port 19021Device "CORTEX-M7" selected.WEBSRV 
Starting webserver (0019ms, 11053ms total)
T5E9C 3393:113 WEBSRV Webserver running on local port 19080 (0019ms, 11053ms total)
T5E9C 3393:113   returns O.K. (0019ms, 11053ms total)
T5E9C 3393:132 JLINK_GetEmuCaps()  returns 0xB9FF7BBF (0000ms, 11053ms total)
T5E9C 3393:133 JLINK_TIF_GetAvailable(...) (0000ms, 11053ms total)
T5E9C 3393:133 JLINK_SetErrorOutHandler(...) (0000ms, 11053ms total)
T5E9C 3393:133 JLINK_ExecCommand("ProjectFile = "C:\Users\IRON\Desktop\STM32H750\cube H750\MDK-ARM\JLinkSettings.ini"", ...). Device "CORTEX-M7" selected.  returns 0x00 (0003ms, 11056ms total)
T5E9C 3393:136 JLINK_ExecCommand("Device = STM32H750VBTx", ...). Device "CORTEX-M7" selected.  returns 0x00 (0002ms, 11058ms total)
T5E9C 3393:138 JLINK_ExecCommand("DisableConnectionTimeout", ...).   returns 0x01 (0000ms, 11058ms total)
T5E9C 3393:138 JLINK_GetHardwareVersion()  returns 0x17AE8 (0000ms, 11058ms total)
T5E9C 3393:138 JLINK_GetDLLVersion()  returns 63206 (0000ms, 11058ms total)
T5E9C 3393:138 JLINK_GetFirmwareString(...) (0000ms, 11058ms total)
T5E9C 3393:138 JLINK_GetDLLVersion()  returns 63206 (0000ms, 11058ms total)
T5E9C 3393:138 JLINK_GetCompileDateTime() (0000ms, 11058ms total)
T5E9C 3393:138 JLINK_GetFirmwareString(...) (0000ms, 11058ms total)
T5E9C 3393:138 JLINK_GetHardwareVersion()  returns 0x17AE8 (0000ms, 11058ms total)
T5E9C 3393:138 JLINK_TIF_Select(JLINKARM_TIF_SWD)  returns 0x00 (0001ms, 11059ms total)
T5E9C 3393:139 JLINK_SetSpeed(5000) (0000ms, 11059ms total)
T5E9C 3393:139 JLINK_GetId() >0x10B TIF>Found SW-DP with ID 0x6BA02477 >0x0D TIF> >0x28 TIF> >0x0D TIF> >0x28 TIF> >0x0D TIF> >0x28 TIF> >0x0D TIF> >0x28 TIF> >0x0D TIF> >0x21 TIF> >0x0D TIF> >0x28 TIF>Scanning AP map to find all available APs >0x0D TIF> >0x28 TIF> >0x0D TIF> >0x21 TIF> >0x0D TIF> >0x21 TIF> >0x0D TIF> >0x28 TIF> >0x0D TIF> >0x21 TIF> >0x0D TIF> >0x21 TIF> >0x0D TIF> >0x28 TIF> >0x0D TIF> >0x21 TIF> >0x0D TIF> >0x21 TIF> >0x0D TIF> >0x28 TIF> >0x0D TIF> >0x21 TIF> >0x0D TIF> >0x21 TIF>
AP[3]: Stopped AP scan as end of AP map has been reachedAP[0]: AHB-AP (IDR: 0x84770001)AP[1]: AHB-AP (IDR: 0x84770001)AP[2]: APB-AP (IDR: 0x54770002)Iterating through AP map to find AHB-AP to use >0x42 TIF> >0x28 TIF> >0x0D TIF> >0x28 TIF> >0x0D TIF> >0x21 TIF> >0x0D TIF> >0x21 TIF> >0x42 TIF> >0x28 TIF> >0x0D TIF> >0x28 TIF> >0x0D TIF> >0x28 TIF> >0x0D TIF> >0x21 TIF> >0x0D TIF> >0x21 TIF>AP[0]: Core foundAP[0]: AHB-AP ROM base: 0xE00FE000 >0x0D TIF> >0x28 TIF> >0x0D TIF> >0x28 TIF> >0x0D TIF>
 >0x28 TIF> >0x0D TIF> >0x21 TIF> >0x0D TIF> >0x21 TIF>CPUID register: 0x411FC271. Implementer code: 0x41 (ARM)Found Cortex-M7 r1p1, Little endian. -- CPU_ReadMem(4 bytes @ 0xE000EDF0) -- CPU_WriteMem(4 bytes @ 0xE000EDF0) -- CPU_ReadMem(4 bytes @ 0xE0002000)FPUnit: 8 code (BP) slots and 0 literal slots -- CPU_ReadMem(4 bytes @ 0xE000EDFC) -- CPU_WriteMem(4 bytes @ 0xE000EDFC) -- CPU_ReadMem(4 bytes @ 0xE0001000) -- CPU_WriteMem(4 bytes @ 0xE0001000) -- CPU_ReadMem(4 bytes @ 0xE000ED88)
 -- CPU_WriteMem(4 bytes @ 0xE000ED88) -- CPU_ReadMem(4 bytes @ 0xE000ED88) -- CPU_WriteMem(4 bytes @ 0xE000ED88)CoreSight components:ROMTbl[0] @ E00FE000 -- CPU_ReadMem(16 bytes @ 0xE00FE000) -- CPU_ReadMem(16 bytes @ 0xE00FFFF0) -- CPU_ReadMem(16 bytes @ 0xE00FFFE0)ROMTbl[0][0]: E00FF000, CID: B105100D, PID: 000BB4C7 ROM TableROMTbl[1] @ E00FF000 -- CPU_ReadMem(16 bytes @ 0xE00FF000) -- CPU_ReadMem(16 bytes @ 0xE000EFF0) -- CPU_ReadMem(16 bytes @ 0xE000EFE0)
ROMTbl[1][0]: E000E000, CID: B105E00D, PID: 000BB00C SCS-M7 -- CPU_ReadMem(16 bytes @ 0xE0001FF0) -- CPU_ReadMem(16 bytes @ 0xE0001FE0)ROMTbl[1][1]: E0001000, CID: B105E00D, PID: 000BB002 DWT -- CPU_ReadMem(16 bytes @ 0xE0002FF0) -- CPU_ReadMem(16 bytes @ 0xE0002FE0)ROMTbl[1][2]: E0002000, CID: B105E00D, PID: 000BB00E FPB-M7 -- CPU_ReadMem(16 bytes @ 0xE0000FF0) -- CPU_ReadMem(16 bytes @ 0xE0000FE0)ROMTbl[1][3]: E0000000, CID: B105E00D, PID: 000BB001 ITM -- CPU_ReadMem(16 bytes @ 0xE00FF010)
 -- CPU_ReadMem(16 bytes @ 0xE0041FF0) -- CPU_ReadMem(16 bytes @ 0xE0041FE0)ROMTbl[0][1]: E0041000, CID: B105900D, PID: 001BB975 ETM-M7 -- CPU_ReadMem(16 bytes @ 0xE0043FF0) -- CPU_ReadMem(16 bytes @ 0xE0043FE0)ROMTbl[0][2]: E0043000, CID: B105900D, PID: 004BB906 CTI -- CPU_ReadMem(16 bytes @ 0xE00FE010) -- CPU_ReadMem(4 bytes @ 0xE000ED78)Cache: Separate I- and D-cache. (0131ms, 11190ms total)
T5E9C 3393:139  -- CPU_WriteMem(4 bytes @ 0xE000ED84) -- CPU_ReadMem(4 bytes @ 0xE000ED80)I-Cache L1: 16 KB, 256 Sets, 32 Bytes/Line, 2-Way -- CPU_WriteMem(4 bytes @ 0xE000ED84) -- CPU_ReadMem(4 bytes @ 0xE000ED80)D-Cache L1: 16 KB, 128 Sets, 32 Bytes/Line, 4-Way >0x0D TIF> >0x21 TIF>  returns 0x6BA02477 (0133ms, 11192ms total)
T5E9C 3393:272 JLINK_GetDLLVersion()  returns 63206 (0000ms, 11192ms total)
T5E9C 3393:272 JLINK_CORE_GetFound()  returns 0xE0100FF (0000ms, 11192ms total)
T5E9C 3393:272 JLINK_GetDebugInfo(0x100 = JLINKARM_ROM_TABLE_ADDR_INDEX) -- Value=0xE00FE000  returns 0x00 (0000ms, 11192ms total)
T5E9C 3393:272 JLINK_GetDebugInfo(0x100 = JLINKARM_ROM_TABLE_ADDR_INDEX) -- Value=0xE00FE000  returns 0x00 (0000ms, 11192ms total)
T5E9C 3393:272 JLINK_GetDebugInfo(0x101 = JLINKARM_DEBUG_INFO_ETM_ADDR_INDEX) -- Value=0xE0041000  returns 0x00 (0000ms, 11192ms total)
T5E9C 3393:272 JLINK_ReadMemEx(0xE0041FD0, 0x0020 Bytes, ..., Flags = 0x02000004) -- CPU_ReadMem(32 bytes @ 0xE0041FD0) - Data: 04 00 00 00 00 00 00 00 00 00 00 00 00 00 00 00 ...  returns 0x20 (0001ms, 11193ms total)
T5E9C 3393:273 JLINK_GetDebugInfo(0x102 = JLINKARM_DEBUG_INFO_MTB_ADDR_INDEX) -- Value=0x00000000  returns 0x00 (0000ms, 11193ms total)
T5E9C 3393:273 JLINK_GetDebugInfo(0x103 = JLINKARM_DEBUG_INFO_TPIU_ADDR_INDEX) -- Value=0x00000000  returns 0x00 (0000ms, 11193ms total)
T5E9C 3393:273 JLINK_ReadMemEx(0xE0040FF0, 0x0010 Bytes, ..., Flags = 0x02000004) -- CPU_ReadMem(16 bytes @ 0xE0040FF0) - Data: 00 00 00 00 00 00 00 00 00 00 00 00 00 00 00 00  returns 0x10 (0000ms, 11193ms total)
T5E9C 3393:273 JLINK_GetDebugInfo(0x104 = JLINKARM_DEBUG_INFO_ITM_ADDR_INDEX) -- Value=0xE0000000  returns 0x00 (0000ms, 11193ms total)
T5E9C 3393:273 JLINK_GetDebugInfo(0x105 = JLINKARM_DEBUG_INFO_DWT_ADDR_INDEX) -- Value=0xE0001000  returns 0x00 (0000ms, 11193ms total)
T5E9C 3393:273 JLINK_GetDebugInfo(0x106 = JLINKARM_DEBUG_INFO_FPB_ADDR_INDEX) -- Value=0xE0002000  returns 0x00 (0000ms, 11193ms total)
T5E9C 3393:273 JLINK_GetDebugInfo(0x107 = JLINKARM_DEBUG_INFO_NVIC_ADDR_INDEX) -- Value=0xE000E000  returns 0x00 (0000ms, 11193ms total)
T5E9C 3393:273 JLINK_GetDebugInfo(0x10C = JLINKARM_DEBUG_INFO_DBG_ADDR_INDEX) -- Value=0xE000EDF0  returns 0x00 (0000ms, 11193ms total)
T5E9C 3393:273 JLINK_GetDebugInfo(0x01 = Unknown) -- Value=0x00000001  returns 0x00 (0000ms, 11193ms total)
T5E9C 3393:273 JLINK_ReadMemU32(0xE000ED00, 0x0001 Items, ...) -- CPU_ReadMem(4 bytes @ 0xE000ED00) - Data: 71 C2 1F 41  returns 0x01 (0001ms, 11194ms total)
T5E9C 3393:274 JLINK_GetDebugInfo(0x10F = JLINKARM_DEBUG_INFO_HAS_CORTEX_M_SECURITY_EXT_INDEX) -- Value=0x00000000  returns 0x00 (0000ms, 11194ms total)
T5E9C 3393:274 JLINK_SetResetType(JLINKARM_CM3_RESET_TYPE_NORMAL)  returns JLINKARM_CM3_RESET_TYPE_NORMAL (0000ms, 11194ms total)
T5E9C 3393:274 JLINK_Reset() -- CPU is running -- CPU_WriteMem(4 bytes @ 0xE000EDF0) -- CPU is running -- CPU_WriteMem(4 bytes @ 0xE000EDFC)Reset: Halt core after reset via DEMCR.VC_CORERESET. >0x35 TIF>Reset: Reset device via AIRCR.SYSRESETREQ. -- CPU is running -- CPU_WriteMem(4 bytes @ 0xE000ED0C) >0x0D TIF> >0x28 TIF> -- CPU_ReadMem(4 bytes @ 0xE000EDF0) -- CPU_ReadMem(4 bytes @ 0xE000EDF0) -- CPU is running -- CPU_WriteMem(4 bytes @ 0xE000EDF0) -- CPU is running -- CPU_WriteMem(4 bytes @ 0xE000EDFC)
 -- CPU_ReadMem(4 bytes @ 0xE000EDF0) -- CPU_WriteMem(4 bytes @ 0xE0002000) -- CPU_ReadMem(4 bytes @ 0xE000EDFC) -- CPU_ReadMem(4 bytes @ 0xE0001000) (0064ms, 11258ms total)
T5E9C 3393:338 JLINK_ReadReg(R15 (PC))  returns 0x080002AC (0000ms, 11258ms total)
T5E9C 3393:338 JLINK_ReadReg(XPSR)  returns 0x01000000 (0000ms, 11258ms total)
T5E9C 3393:338 JLINK_Halt()  returns 0x00 (0000ms, 11258ms total)
T5E9C 3393:338 JLINK_ReadMemU32(0xE000EDF0, 0x0001 Items, ...) -- CPU_ReadMem(4 bytes @ 0xE000EDF0) - Data: 03 00 03 00  returns 0x01 (0001ms, 11259ms total)
T5E9C 3393:339 JLINK_WriteU32(0xE000EDF0, 0xA05F0003) -- CPU_WriteMem(4 bytes @ 0xE000EDF0)  returns 0x00 (0000ms, 11259ms total)
T5E9C 3393:339 JLINK_WriteU32(0xE000EDFC, 0x01000000) -- CPU_WriteMem(4 bytes @ 0xE000EDFC)  returns 0x00 (0001ms, 11260ms total)
T5E9C 3393:340 JLINK_GetHWStatus(...)  returns 0x00 (0000ms, 11260ms total)
T5E9C 3393:340 JLINK_GetNumBPUnits(Type = 0xFFFFFF00)  returns 0x08 (0000ms, 11260ms total)
T5E9C 3393:340 JLINK_GetNumBPUnits(Type = 0xF0)  returns 0x2000 (0000ms, 11260ms total)
T5E9C 3393:340 JLINK_GetNumWPUnits()  returns 0x04 (0000ms, 11260ms total)
T5E9C 3393:340 JLINK_GetSpeed()  returns 0xFA0 (0000ms, 11260ms total)
T5E9C 3393:340 JLINK_ReadMemU32(0xE000E004, 0x0001 Items, ...) -- CPU_ReadMem(4 bytes @ 0xE000E004) - Data: 04 00 00 00  returns 0x01 (0001ms, 11261ms total)
T5E9C 3393:341 JLINK_ReadMemU32(0xE000E004, 0x0001 Items, ...) -- CPU_ReadMem(4 bytes @ 0xE000E004) - Data: 04 00 00 00  returns 0x01 (0000ms, 11261ms total)
T5E9C 3393:341 JLINK_WriteMemEx(0xE0001000, 0x001C Bytes, ..., Flags = 0x02000004) - Data: 01 00 00 00 00 00 00 00 00 00 00 00 00 00 00 00 ... -- CPU_WriteMem(28 bytes @ 0xE0001000)  returns 0x1C (0001ms, 11262ms total)
T5E9C 3393:342 JLINK_ReadReg(R15 (PC))  returns 0x080002AC (0000ms, 11262ms total)
T5E9C 3393:342 JLINK_ReadReg(XPSR)  returns 0x01000000 (0000ms, 11262ms total)
T5E9C 3393:346 JLINK_ReadMemEx(0xE0001004, 0x0004 Bytes, ..., Flags = 0x02000000) - Data: 00 00 00 00  returns 0x04 (0000ms, 11262ms total)
T5E9C 3393:483 JLINK_SetResetType(JLINKARM_CM3_RESET_TYPE_NORMAL)  returns JLINKARM_CM3_RESET_TYPE_NORMAL (0000ms, 11262ms total)
T5E9C 3393:483 JLINK_Reset() -- CPU_WriteMem(4 bytes @ 0xE000EDF0) -- CPU_WriteMem(4 bytes @ 0xE000EDFC)Reset: Halt core after reset via DEMCR.VC_CORERESET. >0x35 TIF>Reset: Reset device via AIRCR.SYSRESETREQ. -- CPU_WriteMem(4 bytes @ 0xE000ED0C) >0x0D TIF> >0x28 TIF> -- CPU_ReadMem(4 bytes @ 0xE000EDF0) -- CPU_ReadMem(4 bytes @ 0xE000EDF0) -- CPU_WriteMem(4 bytes @ 0xE000EDF0) -- CPU_WriteMem(4 bytes @ 0xE000EDFC) -- CPU_ReadMem(4 bytes @ 0xE000EDF0) -- CPU_WriteMem(4 bytes @ 0xE0002000)
 -- CPU_ReadMem(4 bytes @ 0xE000EDFC) -- CPU_ReadMem(4 bytes @ 0xE0001000) (0067ms, 11329ms total)
T5E9C 3393:550 JLINK_ReadReg(R15 (PC))  returns 0x080002AC (0000ms, 11329ms total)
T5E9C 3393:550 JLINK_ReadReg(XPSR)  returns 0x01000000 (0000ms, 11329ms total)
T5E9C 3393:551 JLINK_ReadMemEx(0x08000298, 0x003C Bytes, ..., Flags = 0x02000000) -- CPU_ReadMem(60 bytes @ 0x08000298) - Data: DF F8 0C D0 00 F0 2A F8 00 48 00 47 B5 27 00 08 ...  returns 0x3C (0001ms, 11330ms total)
T5E9C 3395:987 JLINK_ReadReg(R0)  returns 0x00000000 (0001ms, 11331ms total)
T5E9C 3395:988 JLINK_ReadReg(R1)  returns 0x00000000 (0000ms, 11331ms total)
T5E9C 3395:988 JLINK_ReadReg(R2)  returns 0x00000000 (0000ms, 11331ms total)
T5E9C 3395:988 JLINK_ReadReg(R3)  returns 0x00000000 (0000ms, 11331ms total)
T5E9C 3395:988 JLINK_ReadReg(R4)  returns 0x00000000 (0000ms, 11331ms total)
T5E9C 3395:988 JLINK_ReadReg(R5)  returns 0x00000000 (0000ms, 11331ms total)
T5E9C 3395:988 JLINK_ReadReg(R6)  returns 0x00000000 (0000ms, 11331ms total)
T5E9C 3395:988 JLINK_ReadReg(R7)  returns 0x00000000 (0000ms, 11331ms total)
T5E9C 3395:988 JLINK_ReadReg(R8)  returns 0x00000000 (0000ms, 11331ms total)
T5E9C 3395:988 JLINK_ReadReg(R9)  returns 0x00000000 (0000ms, 11331ms total)
T5E9C 3395:988 JLINK_ReadReg(R10)  returns 0x00000000 (0000ms, 11331ms total)
T5E9C 3395:988 JLINK_ReadReg(R11)  returns 0x00000000 (0000ms, 11331ms total)
T5E9C 3395:988 JLINK_ReadReg(R12)  returns 0x00000000 (0000ms, 11331ms total)
T5E9C 3395:988 JLINK_ReadReg(R13 (SP))  returns 0x200004E8 (0000ms, 11331ms total)
T5E9C 3395:988 JLINK_ReadReg(R14)  returns 0xFFFFFFFF (0000ms, 11331ms total)
T5E9C 3395:988 JLINK_ReadReg(R15 (PC))  returns 0x080002AC (0000ms, 11331ms total)
T5E9C 3395:988 JLINK_ReadReg(XPSR)  returns 0x01000000 (0000ms, 11331ms total)
T5E9C 3395:988 JLINK_ReadReg(MSP)  returns 0x200004E8 (0000ms, 11331ms total)
T5E9C 3395:988 JLINK_ReadReg(PSP)  returns 0x00000000 (0000ms, 11331ms total)
T5E9C 3395:988 JLINK_ReadReg(CFBP)  returns 0x00000000 (0000ms, 11331ms total)
T5E9C 3395:988 JLINK_ReadReg(FPSCR)  returns 0x00000000 (0003ms, 11334ms total)
T5E9C 3395:991 JLINK_ReadReg(FPS0)  returns 0x00000000 (0000ms, 11334ms total)
T5E9C 3395:991 JLINK_ReadReg(FPS1)  returns 0x00000000 (0000ms, 11334ms total)
T5E9C 3395:991 JLINK_ReadReg(FPS2)  returns 0x00000000 (0000ms, 11334ms total)
T5E9C 3395:991 JLINK_ReadReg(FPS3)  returns 0x00000000 (0000ms, 11334ms total)
T5E9C 3395:991 JLINK_ReadReg(FPS4)  returns 0x00000000 (0000ms, 11334ms total)
T5E9C 3395:991 JLINK_ReadReg(FPS5)  returns 0x00000000 (0000ms, 11334ms total)
T5E9C 3395:991 JLINK_ReadReg(FPS6)  returns 0x00000000 (0000ms, 11334ms total)
T5E9C 3395:991 JLINK_ReadReg(FPS7)  returns 0x00000000 (0000ms, 11334ms total)
T5E9C 3395:991 JLINK_ReadReg(FPS8)  returns 0x00000000 (0000ms, 11334ms total)
T5E9C 3395:991 JLINK_ReadReg(FPS9)  returns 0x00000000 (0000ms, 11334ms total)
T5E9C 3395:991 JLINK_ReadReg(FPS10)  returns 0x00000000 (0000ms, 11334ms total)
T5E9C 3395:991 JLINK_ReadReg(FPS11)  returns 0x00000000 (0000ms, 11334ms total)
T5E9C 3395:991 JLINK_ReadReg(FPS12)  returns 0x00000000 (0000ms, 11334ms total)
T5E9C 3395:991 JLINK_ReadReg(FPS13)  returns 0x00000000 (0000ms, 11334ms total)
T5E9C 3395:992 JLINK_ReadReg(FPS14)  returns 0x00000000 (0000ms, 11334ms total)
T5E9C 3395:992 JLINK_ReadReg(FPS15)  returns 0xFFFFFFFF (0000ms, 11334ms total)
T5E9C 3395:992 JLINK_ReadReg(FPS16)  returns 0x00000000 (0000ms, 11334ms total)
T5E9C 3395:992 JLINK_ReadReg(FPS17)  returns 0x00000000 (0000ms, 11334ms total)
T5E9C 3395:992 JLINK_ReadReg(FPS18)  returns 0x00000000 (0000ms, 11334ms total)
T5E9C 3395:992 JLINK_ReadReg(FPS19)  returns 0x00000000 (0000ms, 11334ms total)
T5E9C 3395:992 JLINK_ReadReg(FPS20)  returns 0x00000000 (0000ms, 11334ms total)
T5E9C 3395:992 JLINK_ReadReg(FPS21)  returns 0x00000000 (0000ms, 11334ms total)
T5E9C 3395:992 JLINK_ReadReg(FPS22)  returns 0x00000000 (0000ms, 11334ms total)
T5E9C 3395:992 JLINK_ReadReg(FPS23)  returns 0x00000000 (0000ms, 11334ms total)
T5E9C 3395:992 JLINK_ReadReg(FPS24)  returns 0x00000000 (0000ms, 11334ms total)
T5E9C 3395:992 JLINK_ReadReg(FPS25)  returns 0x00000000 (0000ms, 11334ms total)
T5E9C 3395:992 JLINK_ReadReg(FPS26)  returns 0x00000000 (0000ms, 11334ms total)
T5E9C 3395:992 JLINK_ReadReg(FPS27)  returns 0x00000000 (0000ms, 11334ms total)
T5E9C 3395:992 JLINK_ReadReg(FPS28)  returns 0x00000000 (0000ms, 11334ms total)
T5E9C 3395:992 JLINK_ReadReg(FPS29)  returns 0x00000000 (0000ms, 11334ms total)
T5E9C 3395:992 JLINK_ReadReg(FPS30)  returns 0x00000000 (0000ms, 11334ms total)
T5E9C 3395:992 JLINK_ReadReg(FPS31)  returns 0xFFFFFFFF (0000ms, 11334ms total)
T5E9C 3396:002 JLINK_ReadMemEx(0x20000000, 0x0004 Bytes, ..., Flags = 0x02000000) -- CPU_ReadMem(4 bytes @ 0x20000000) - Data: 02 00 00 00  returns 0x04 (0001ms, 11335ms total)
T1CE8 3396:057 JLINK_ReadMemEx(0x080002AC, 0x0002 Bytes, ..., Flags = 0x02000000) -- CPU_ReadMem(2 bytes @ 0x080002AC) - Data: 06 48  returns 0x02 (0000ms, 11335ms total)
T1CE8 3396:057 JLINK_SetBPEx(Addr = 0x080027B4, Type = 0xFFFFFFF2)  returns 0x00000001 (0000ms, 11335ms total)
T1CE8 3396:058 JLINK_Go() -- CPU_WriteMem(4 bytes @ 0xE0002000) -- CPU_ReadMem(4 bytes @ 0xE0001000) -- CPU_WriteMem(4 bytes @ 0xE0002008) -- CPU_WriteMem(4 bytes @ 0xE000200C) -- CPU_WriteMem(4 bytes @ 0xE0002010) -- CPU_WriteMem(4 bytes @ 0xE0002014) -- CPU_WriteMem(4 bytes @ 0xE0002018) -- CPU_WriteMem(4 bytes @ 0xE000201C) -- CPU_WriteMem(4 bytes @ 0xE0002020) -- CPU_WriteMem(4 bytes @ 0xE0002024) -- CPU_WriteMem(4 bytes @ 0xE0001004) (0002ms, 11337ms total)
T1CE8 3396:162 JLINK_IsHalted()  returns TRUE (0001ms, 11338ms total)
T1CE8 3396:164 JLINK_Halt()  returns 0x00 (0000ms, 11337ms total)
T1CE8 3396:164 JLINK_IsHalted()  returns TRUE (0000ms, 11337ms total)
T1CE8 3396:164 JLINK_IsHalted()  returns TRUE (0000ms, 11337ms total)
T1CE8 3396:164 JLINK_IsHalted()  returns TRUE (0000ms, 11337ms total)
T1CE8 3396:164 JLINK_ReadReg(R15 (PC))  returns 0x080027B4 (0000ms, 11337ms total)
T1CE8 3396:164 JLINK_ReadReg(XPSR)  returns 0x61000000 (0000ms, 11337ms total)
T1CE8 3396:164 JLINK_ClrBPEx(BPHandle = 0x00000001)  returns 0x00 (0000ms, 11337ms total)
T1CE8 3396:164 JLINK_ReadMemU32(0xE000ED30, 0x0001 Items, ...) -- CPU_ReadMem(4 bytes @ 0xE000ED30) - Data: 02 00 00 00  returns 0x01 (0000ms, 11337ms total)
T1CE8 3396:164 JLINK_ReadMemU32(0xE0001028, 0x0001 Items, ...) -- CPU_ReadMem(4 bytes @ 0xE0001028) - Data: 00 00 00 00  returns 0x01 (0000ms, 11337ms total)
T1CE8 3396:164 JLINK_ReadMemU32(0xE0001038, 0x0001 Items, ...) -- CPU_ReadMem(4 bytes @ 0xE0001038) - Data: 00 02 00 00  returns 0x01 (0001ms, 11338ms total)
T1CE8 3396:165 JLINK_ReadMemU32(0xE0001048, 0x0001 Items, ...) -- CPU_ReadMem(4 bytes @ 0xE0001048) - Data: 00 00 00 00  returns 0x01 (0000ms, 11338ms total)
T1CE8 3396:165 JLINK_ReadMemU32(0xE0001058, 0x0001 Items, ...) -- CPU_ReadMem(4 bytes @ 0xE0001058) - Data: 00 00 00 00  returns 0x01 (0000ms, 11338ms total)
T1CE8 3396:166 JLINK_ReadReg(R0)  returns 0x080027B5 (0000ms, 11338ms total)
T1CE8 3396:166 JLINK_ReadReg(R1)  returns 0x200004E8 (0000ms, 11338ms total)
T1CE8 3396:166 JLINK_ReadReg(R2)  returns 0x00000000 (0000ms, 11338ms total)
T1CE8 3396:166 JLINK_ReadReg(R3)  returns 0x080027A5 (0000ms, 11338ms total)
T1CE8 3396:166 JLINK_ReadReg(R4)  returns 0x08002824 (0000ms, 11338ms total)
T1CE8 3396:166 JLINK_ReadReg(R5)  returns 0x08002824 (0000ms, 11338ms total)
T1CE8 3396:166 JLINK_ReadReg(R6)  returns 0x00000000 (0000ms, 11338ms total)
T1CE8 3396:166 JLINK_ReadReg(R7)  returns 0x00000000 (0000ms, 11338ms total)
T1CE8 3396:166 JLINK_ReadReg(R8)  returns 0x00000000 (0000ms, 11338ms total)
T1CE8 3396:166 JLINK_ReadReg(R9)  returns 0x00000000 (0000ms, 11338ms total)
T1CE8 3396:166 JLINK_ReadReg(R10)  returns 0x00000000 (0000ms, 11338ms total)
T1CE8 3396:166 JLINK_ReadReg(R11)  returns 0x00000000 (0000ms, 11338ms total)
T1CE8 3396:166 JLINK_ReadReg(R12)  returns 0x00000000 (0000ms, 11338ms total)
T1CE8 3396:166 JLINK_ReadReg(R13 (SP))  returns 0x200004E8 (0000ms, 11338ms total)
T1CE8 3396:166 JLINK_ReadReg(R14)  returns 0x08000311 (0000ms, 11338ms total)
T1CE8 3396:166 JLINK_ReadReg(R15 (PC))  returns 0x080027B4 (0000ms, 11338ms total)
T1CE8 3396:166 JLINK_ReadReg(XPSR)  returns 0x61000000 (0000ms, 11338ms total)
T1CE8 3396:166 JLINK_ReadReg(MSP)  returns 0x200004E8 (0000ms, 11338ms total)
T1CE8 3396:166 JLINK_ReadReg(PSP)  returns 0x00000000 (0000ms, 11338ms total)
T1CE8 3396:166 JLINK_ReadReg(CFBP)  returns 0x00000000 (0000ms, 11338ms total)
T1CE8 3396:166 JLINK_ReadReg(FPSCR)  returns 0x00000000 (0003ms, 11341ms total)
T1CE8 3396:169 JLINK_ReadReg(FPS0)  returns 0x00000000 (0000ms, 11341ms total)
T1CE8 3396:169 JLINK_ReadReg(FPS1)  returns 0x00000000 (0000ms, 11341ms total)
T1CE8 3396:169 JLINK_ReadReg(FPS2)  returns 0x00000000 (0000ms, 11341ms total)
T1CE8 3396:169 JLINK_ReadReg(FPS3)  returns 0x00000000 (0000ms, 11341ms total)
T1CE8 3396:169 JLINK_ReadReg(FPS4)  returns 0x00000000 (0000ms, 11341ms total)
T1CE8 3396:169 JLINK_ReadReg(FPS5)  returns 0x00000000 (0000ms, 11341ms total)
T1CE8 3396:169 JLINK_ReadReg(FPS6)  returns 0x00000000 (0000ms, 11341ms total)
T1CE8 3396:169 JLINK_ReadReg(FPS7)  returns 0x00000000 (0000ms, 11341ms total)
T1CE8 3396:169 JLINK_ReadReg(FPS8)  returns 0x00000000 (0000ms, 11341ms total)
T1CE8 3396:169 JLINK_ReadReg(FPS9)  returns 0x00000000 (0000ms, 11341ms total)
T1CE8 3396:169 JLINK_ReadReg(FPS10)  returns 0x00000000 (0000ms, 11341ms total)
T1CE8 3396:169 JLINK_ReadReg(FPS11)  returns 0x00000000 (0000ms, 11341ms total)
T1CE8 3396:169 JLINK_ReadReg(FPS12)  returns 0x00000000 (0000ms, 11341ms total)
T1CE8 3396:169 JLINK_ReadReg(FPS13)  returns 0x00000000 (0000ms, 11341ms total)
T1CE8 3396:169 JLINK_ReadReg(FPS14)  returns 0x00000000 (0000ms, 11341ms total)
T1CE8 3396:169 JLINK_ReadReg(FPS15)  returns 0xFFFFFFFF (0000ms, 11341ms total)
T1CE8 3396:169 JLINK_ReadReg(FPS16)  returns 0x00000000 (0000ms, 11341ms total)
T1CE8 3396:169 JLINK_ReadReg(FPS17)  returns 0x00000000 (0000ms, 11341ms total)
T1CE8 3396:169 JLINK_ReadReg(FPS18)  returns 0x00000000 (0000ms, 11341ms total)
T1CE8 3396:169 JLINK_ReadReg(FPS19)  returns 0x00000000 (0000ms, 11341ms total)
T1CE8 3396:169 JLINK_ReadReg(FPS20)  returns 0x00000000 (0000ms, 11341ms total)
T1CE8 3396:169 JLINK_ReadReg(FPS21)  returns 0x00000000 (0000ms, 11341ms total)
T1CE8 3396:169 JLINK_ReadReg(FPS22)  returns 0x00000000 (0001ms, 11342ms total)
T1CE8 3396:170 JLINK_ReadReg(FPS23)  returns 0x00000000 (0000ms, 11342ms total)
T1CE8 3396:170 JLINK_ReadReg(FPS24)  returns 0x00000000 (0000ms, 11342ms total)
T1CE8 3396:170 JLINK_ReadReg(FPS25)  returns 0x00000000 (0000ms, 11342ms total)
T1CE8 3396:170 JLINK_ReadReg(FPS26)  returns 0x00000000 (0000ms, 11342ms total)
T1CE8 3396:170 JLINK_ReadReg(FPS27)  returns 0x00000000 (0000ms, 11342ms total)
T1CE8 3396:170 JLINK_ReadReg(FPS28)  returns 0x00000000 (0000ms, 11342ms total)
T1CE8 3396:170 JLINK_ReadReg(FPS29)  returns 0x00000000 (0000ms, 11342ms total)
T1CE8 3396:170 JLINK_ReadReg(FPS30)  returns 0x00000000 (0000ms, 11342ms total)
T1CE8 3396:170 JLINK_ReadReg(FPS31)  returns 0xFFFFFFFF (0000ms, 11342ms total)
T5E9C 3396:171 JLINK_ReadMemU32(0xE0001004, 0x0001 Items, ...) -- CPU_ReadMem(4 bytes @ 0xE0001004) - Data: 03 07 00 00  returns 0x01 (0000ms, 11342ms total)
T5E9C 3396:171 JLINK_ReadMemEx(0x20000000, 0x0004 Bytes, ..., Flags = 0x02000000) -- CPU_ReadMem(4 bytes @ 0x20000000) - Data: 00 00 00 00  returns 0x04 (0001ms, 11343ms total)
T5E9C 3396:175 JLINK_ReadMemEx(0x080026B4, 0x003C Bytes, ..., Flags = 0x02000000) -- CPU_ReadMem(128 bytes @ 0x08002680) -- Updating DA cache (128 bytes @ 0x08002680) -- Read from DA cache (60 bytes @ 0x080026B4) - Data: 24 F0 70 04 45 EA 06 45 43 EA 04 03 0B D0 0C 4C ...  returns 0x3C (0001ms, 11344ms total)
T5E9C 3396:176 JLINK_ReadMemEx(0x080026F0, 0x003C Bytes, ..., Flags = 0x02000000) -- CPU_ReadMem(64 bytes @ 0x08002700) -- Updating DA cache (64 bytes @ 0x08002700) -- Read from DA cache (60 bytes @ 0x080026F0) - Data: 00 00 01 40 00 04 01 40 00 40 01 40 00 44 01 40 ...  returns 0x3C (0001ms, 11345ms total)
T5E9C 3396:177 JLINK_ReadMemEx(0x0800272C, 0x003C Bytes, ..., Flags = 0x02000000) -- CPU_ReadMem(64 bytes @ 0x08002740) -- Updating DA cache (64 bytes @ 0x08002740) -- Read from DA cache (60 bytes @ 0x0800272C) - Data: 0B D0 0C 4D A8 42 08 D0 0B 4D A8 42 05 D0 0B 4D ...  returns 0x3C (0001ms, 11346ms total)
T5E9C 3396:178 JLINK_ReadMemEx(0x08002770, 0x003C Bytes, ..., Flags = 0x02000000) -- CPU_ReadMem(64 bytes @ 0x08002780) -- Updating DA cache (64 bytes @ 0x08002780) -- Read from DA cache (60 bytes @ 0x08002770) - Data: FE E7 09 07 00 28 4F EA 11 61 04 DB 00 F1 E0 20 ...  returns 0x3C (0000ms, 11346ms total)
T5E9C 3396:178 JLINK_ReadMemEx(0x080027AC, 0x003C Bytes, ..., Flags = 0x02000000) -- CPU_ReadMem(64 bytes @ 0x080027C0) -- Updating DA cache (64 bytes @ 0x080027C0) -- Read from DA cache (60 bytes @ 0x080027AC) - Data: 00 2A FB D1 70 47 00 00 FD F7 00 FF FF F7 36 FD ...  returns 0x3C (0001ms, 11347ms total)
T1CE8 3396:695 JLINK_ReadMemEx(0x080027B4, 0x0002 Bytes, ..., Flags = 0x02000000) -- Read from DA cache (2 bytes @ 0x080027B4) - Data: FD F7  returns 0x02 (0000ms, 11347ms total)
T1CE8 3396:695 JLINK_Go() -- CPU_ReadMem(4 bytes @ 0xE0001000) -- CPU_WriteMem(4 bytes @ 0xE0002008) (0002ms, 11349ms total)
T1CE8 3396:798 JLINK_IsHalted()  returns FALSE (0000ms, 11349ms total)
T1CE8 3396:899 JLINK_IsHalted()  returns FALSE (0000ms, 11349ms total)
T1CE8 3397:000 JLINK_IsHalted()  returns FALSE (0000ms, 11349ms total)
T1CE8 3397:100 JLINK_IsHalted()  returns FALSE (0000ms, 11349ms total)
T1CE8 3397:201 JLINK_IsHalted()  returns FALSE (0000ms, 11349ms total)
T1CE8 3397:302 JLINK_ReadMemU32(0xE0001004, 0x0001 Items, ...) -- CPU_ReadMem(4 bytes @ 0xE0001004) - Data: 6E A5 50 02  returns 0x01 (0000ms, 11349ms total)
T5E9C 3397:304 JLINK_ReadMemEx(0x20000000, 0x0004 Bytes, ..., Flags = 0x02000000) -- CPU_ReadMem(4 bytes @ 0x20000000) - Data: 01 00 00 00  returns 0x04 (0001ms, 11350ms total)
T1CE8 3397:305 JLINK_IsHalted()  returns FALSE (0001ms, 11351ms total)
T1CE8 3397:407 JLINK_IsHalted()  returns FALSE (0000ms, 11350ms total)
T1CE8 3397:508 JLINK_IsHalted()  returns FALSE (0000ms, 11350ms total)
T1CE8 3397:608 JLINK_IsHalted()  returns FALSE (0000ms, 11350ms total)
T1CE8 3397:709 JLINK_IsHalted()  returns FALSE (0000ms, 11350ms total)
T1CE8 3397:810 JLINK_IsHalted()  returns FALSE (0000ms, 11350ms total)
T1CE8 3397:911 JLINK_ReadMemU32(0xE0001004, 0x0001 Items, ...) - Data: 6E A5 50 02  returns 0x01 (0000ms, 11350ms total)
T5E9C 3397:911 JLINK_ReadMemEx(0x20000000, 0x0004 Bytes, ..., Flags = 0x02000000) -- CPU_ReadMem(4 bytes @ 0x20000000) - Data: 02 00 00 00  returns 0x04 (0000ms, 11350ms total)
T1CE8 3397:912 JLINK_IsHalted()  returns FALSE (0001ms, 11351ms total)
T1CE8 3398:013 JLINK_IsHalted()  returns FALSE (0000ms, 11350ms total)
T1CE8 3398:114 JLINK_IsHalted()  returns FALSE (0000ms, 11350ms total)
T1CE8 3398:215 JLINK_IsHalted()  returns FALSE (0000ms, 11350ms total)
T1CE8 3398:317 JLINK_IsHalted()  returns FALSE (0000ms, 11350ms total)
T1CE8 3398:417 JLINK_IsHalted()  returns FALSE (0000ms, 11350ms total)
T1CE8 3398:518 JLINK_ReadMemU32(0xE0001004, 0x0001 Items, ...) - Data: 6E A5 50 02  returns 0x01 (0000ms, 11350ms total)
T5E9C 3398:518 JLINK_ReadMemEx(0x20000000, 0x0004 Bytes, ..., Flags = 0x02000000) -- CPU_ReadMem(4 bytes @ 0x20000000) - Data: 02 00 00 00  returns 0x04 (0000ms, 11350ms total)
T1CE8 3398:519 JLINK_IsHalted()  returns FALSE (0000ms, 11350ms total)
T1CE8 3398:620 JLINK_IsHalted()  returns FALSE (0000ms, 11350ms total)
T1CE8 3398:720 JLINK_IsHalted()  returns FALSE (0000ms, 11350ms total)
T1CE8 3398:821 JLINK_IsHalted()  returns FALSE (0000ms, 11350ms total)
T1CE8 3398:922 JLINK_IsHalted()  returns FALSE (0000ms, 11350ms total)
T1CE8 3399:023 JLINK_IsHalted()  returns FALSE (0001ms, 11351ms total)
T1CE8 3399:125 JLINK_ReadMemU32(0xE0001004, 0x0001 Items, ...) - Data: 6E A5 50 02  returns 0x01 (0000ms, 11350ms total)
T5E9C 3399:125 JLINK_ReadMemEx(0x20000000, 0x0004 Bytes, ..., Flags = 0x02000000) -- CPU_ReadMem(4 bytes @ 0x20000000) - Data: 03 00 00 00  returns 0x04 (0000ms, 11350ms total)
T1CE8 3399:126 JLINK_IsHalted()  returns FALSE (0000ms, 11350ms total)
T1CE8 3399:227 JLINK_IsHalted()  returns FALSE (0000ms, 11350ms total)
T1CE8 3399:328 JLINK_IsHalted()  returns FALSE (0000ms, 11350ms total)
T1CE8 3399:429 JLINK_IsHalted()  returns FALSE (0000ms, 11350ms total)
T1CE8 3399:530 JLINK_IsHalted()  returns FALSE (0000ms, 11350ms total)
T1CE8 3399:630 JLINK_ReadMemU32(0xE0001004, 0x0001 Items, ...) - Data: 6E A5 50 02  returns 0x01 (0000ms, 11350ms total)
T5E9C 3399:630 JLINK_ReadMemEx(0x20000000, 0x0004 Bytes, ..., Flags = 0x02000000) -- CPU_ReadMem(4 bytes @ 0x20000000) - Data: 03 00 00 00  returns 0x04 (0001ms, 11351ms total)
T1CE8 3399:631 JLINK_IsHalted()  returns FALSE (0001ms, 11352ms total)
T1CE8 3399:734 JLINK_IsHalted()  returns FALSE (0000ms, 11351ms total)
T1CE8 3399:835 JLINK_IsHalted()  returns FALSE (0000ms, 11351ms total)
T1CE8 3399:936 JLINK_IsHalted()  returns FALSE (0000ms, 11351ms total)
T1CE8 3400:037 JLINK_IsHalted()  returns FALSE (0000ms, 11351ms total)
T1CE8 3400:138 JLINK_IsHalted()  returns FALSE (0001ms, 11352ms total)
T1CE8 3400:240 JLINK_ReadMemU32(0xE0001004, 0x0001 Items, ...) - Data: 6E A5 50 02  returns 0x01 (0000ms, 11351ms total)
T5E9C 3400:240 JLINK_ReadMemEx(0x20000000, 0x0004 Bytes, ..., Flags = 0x02000000) -- CPU_ReadMem(4 bytes @ 0x20000000) - Data: 04 00 00 00  returns 0x04 (0000ms, 11351ms total)
T1CE8 3400:241 JLINK_IsHalted()  returns FALSE (0000ms, 11351ms total)
T1CE8 3400:341 JLINK_IsHalted()  returns FALSE (0000ms, 11351ms total)
T1CE8 3400:442 JLINK_IsHalted()  returns FALSE (0000ms, 11351ms total)
T1CE8 3400:543 JLINK_IsHalted()  returns FALSE (0000ms, 11351ms total)
T1CE8 3400:645 JLINK_IsHalted()  returns FALSE (0000ms, 11351ms total)
T1CE8 3400:746 JLINK_IsHalted()  returns FALSE (0000ms, 11351ms total)
T1CE8 3400:847 JLINK_ReadMemU32(0xE0001004, 0x0001 Items, ...) - Data: 6E A5 50 02  returns 0x01 (0000ms, 11351ms total)
T5E9C 3400:847 JLINK_ReadMemEx(0x20000000, 0x0004 Bytes, ..., Flags = 0x02000000) -- CPU_ReadMem(4 bytes @ 0x20000000) - Data: 05 00 00 00  returns 0x04 (0001ms, 11352ms total)
T1CE8 3400:848 JLINK_IsHalted()  returns FALSE (0001ms, 11353ms total)
T1CE8 3400:949 JLINK_IsHalted()  returns FALSE (0000ms, 11352ms total)
T1CE8 3401:051 JLINK_IsHalted()  returns FALSE (0000ms, 11352ms total)
T1CE8 3401:151 JLINK_IsHalted()  returns FALSE (0000ms, 11352ms total)
T1CE8 3401:252 JLINK_IsHalted()  returns FALSE (0000ms, 11352ms total)
T1CE8 3401:354 JLINK_IsHalted()  returns FALSE (0000ms, 11352ms total)
T1CE8 3401:454 JLINK_ReadMemU32(0xE0001004, 0x0001 Items, ...) - Data: 6E A5 50 02  returns 0x01 (0000ms, 11352ms total)
T5E9C 3401:455 JLINK_ReadMemEx(0x20000000, 0x0004 Bytes, ..., Flags = 0x02000000) -- CPU_ReadMem(4 bytes @ 0x20000000) - Data: 05 00 00 00  returns 0x04 (0000ms, 11352ms total)
T1CE8 3401:456 JLINK_IsHalted()  returns FALSE (0000ms, 11352ms total)
T1CE8 3401:557 JLINK_IsHalted()  returns FALSE (0000ms, 11352ms total)
T1CE8 3401:658 JLINK_IsHalted()  returns FALSE (0000ms, 11352ms total)
T1CE8 3401:759 JLINK_IsHalted()  returns FALSE (0000ms, 11352ms total)
T1CE8 3401:859 JLINK_IsHalted()  returns FALSE (0000ms, 11352ms total)
T1CE8 3401:960 JLINK_IsHalted()  returns FALSE (0000ms, 11352ms total)
T1CE8 3402:061 JLINK_ReadMemU32(0xE0001004, 0x0001 Items, ...) - Data: 6E A5 50 02  returns 0x01 (0000ms, 11352ms total)
T5E9C 3402:061 JLINK_ReadMemEx(0x20000000, 0x0004 Bytes, ..., Flags = 0x02000000) -- CPU_ReadMem(4 bytes @ 0x20000000) - Data: 06 00 00 00  returns 0x04 (0001ms, 11353ms total)
T1CE8 3402:062 JLINK_IsHalted()  returns FALSE (0001ms, 11354ms total)
T5E9C 3402:160 JLINK_ReadMemEx(0x20000064, 0x0004 Bytes, ..., Flags = 0x02000000) -- CPU_ReadMem(4 bytes @ 0x20000064) - Data: 00 14 00 40  returns 0x04 (0001ms, 11354ms total)
T5E9C 3402:161 JLINK_ReadMemEx(0x20000080, 0x0001 Bytes, ..., Flags = 0x02000000) -- CPU_ReadMem(1 bytes @ 0x20000080) - Data: 00  returns 0x01 (0000ms, 11354ms total)
T5E9C 3402:161 JLINK_ReadMemEx(0x200000A0, 0x0001 Bytes, ..., Flags = 0x02000000) -- CPU_ReadMem(1 bytes @ 0x200000A0) - Data: 00  returns 0x01 (0000ms, 11354ms total)
T5E9C 3402:161 JLINK_ReadMemEx(0x200000A1, 0x0001 Bytes, ..., Flags = 0x02000000) -- CPU_ReadMem(1 bytes @ 0x200000A1) - Data: 01  returns 0x01 (0001ms, 11355ms total)
T5E9C 3402:162 JLINK_ReadMemEx(0x20000064, 0x0004 Bytes, ..., Flags = 0x02000000) -- CPU_ReadMem(4 bytes @ 0x20000064) - Data: 00 14 00 40  returns 0x04 (0000ms, 11355ms total)
T5E9C 3402:162 JLINK_ReadMemEx(0x20000080, 0x0001 Bytes, ..., Flags = 0x02000000) -- CPU_ReadMem(1 bytes @ 0x20000080) - Data: 00  returns 0x01 (0000ms, 11355ms total)
T5E9C 3402:162 JLINK_ReadMemEx(0x200000A0, 0x0001 Bytes, ..., Flags = 0x02000000) -- CPU_ReadMem(1 bytes @ 0x200000A0) - Data: 00  returns 0x01 (0001ms, 11356ms total)
T5E9C 3402:163 JLINK_ReadMemEx(0x200000A1, 0x0001 Bytes, ..., Flags = 0x02000000) -- CPU_ReadMem(1 bytes @ 0x200000A1) - Data: 01  returns 0x01 (0000ms, 11356ms total)
T1CE8 3402:164 JLINK_IsHalted()  returns FALSE (0000ms, 11356ms total)
T5E9C 3402:170 JLINK_ReadMemEx(0x20000064, 0x0004 Bytes, ..., Flags = 0x02000000) -- CPU_ReadMem(4 bytes @ 0x20000064) - Data: 00 14 00 40  returns 0x04 (0001ms, 11357ms total)
T5E9C 3402:171 JLINK_ReadMemEx(0x20000080, 0x0001 Bytes, ..., Flags = 0x02000000) -- CPU_ReadMem(1 bytes @ 0x20000080) - Data: 00  returns 0x01 (0000ms, 11357ms total)
T5E9C 3402:171 JLINK_ReadMemEx(0x200000A0, 0x0001 Bytes, ..., Flags = 0x02000000) -- CPU_ReadMem(1 bytes @ 0x200000A0) - Data: 00  returns 0x01 (0000ms, 11357ms total)
T5E9C 3402:172 JLINK_ReadMemEx(0x200000A1, 0x0001 Bytes, ..., Flags = 0x02000000) -- CPU_ReadMem(1 bytes @ 0x200000A1) - Data: 01  returns 0x01 (0000ms, 11357ms total)
T1CE8 3402:265 JLINK_IsHalted()  returns FALSE (0000ms, 11357ms total)
T1CE8 3402:366 JLINK_IsHalted()  returns FALSE (0000ms, 11357ms total)
T1CE8 3402:467 JLINK_IsHalted()  returns FALSE (0000ms, 11357ms total)
T1CE8 3402:568 JLINK_ReadMemU32(0xE0001004, 0x0001 Items, ...) - Data: 6E A5 50 02  returns 0x01 (0000ms, 11357ms total)
T5E9C 3402:569 JLINK_ReadMemEx(0x20000064, 0x0004 Bytes, ..., Flags = 0x02000000) -- CPU_ReadMem(4 bytes @ 0x20000064) - Data: 00 14 00 40  returns 0x04 (0001ms, 11358ms total)
T5E9C 3402:570 JLINK_ReadMemEx(0x20000080, 0x0001 Bytes, ..., Flags = 0x02000000) -- CPU_ReadMem(1 bytes @ 0x20000080) - Data: 00  returns 0x01 (0000ms, 11358ms total)
T5E9C 3402:570 JLINK_ReadMemEx(0x200000A0, 0x0001 Bytes, ..., Flags = 0x02000000) -- CPU_ReadMem(1 bytes @ 0x200000A0) - Data: 00  returns 0x01 (0001ms, 11359ms total)
T5E9C 3402:571 JLINK_ReadMemEx(0x200000A1, 0x0001 Bytes, ..., Flags = 0x02000000) -- CPU_ReadMem(1 bytes @ 0x200000A1) - Data: 01  returns 0x01 (0000ms, 11359ms total)
T5E9C 3402:571 JLINK_ReadMemEx(0x20000000, 0x0004 Bytes, ..., Flags = 0x02000000) -- CPU_ReadMem(4 bytes @ 0x20000000) - Data: 06 00 00 00  returns 0x04 (0000ms, 11359ms total)
T1CE8 3402:571 JLINK_IsHalted()  returns FALSE (0000ms, 11359ms total)
T1CE8 3402:672 JLINK_IsHalted()  returns FALSE (0000ms, 11359ms total)
T1CE8 3402:773 JLINK_IsHalted()  returns FALSE (0000ms, 11359ms total)
T1CE8 3402:874 JLINK_IsHalted()  returns FALSE (0000ms, 11359ms total)
T1CE8 3402:974 JLINK_IsHalted()  returns FALSE (0000ms, 11359ms total)
T1CE8 3403:075 JLINK_IsHalted()  returns FALSE (0000ms, 11359ms total)
T1CE8 3403:176 JLINK_ReadMemU32(0xE0001004, 0x0001 Items, ...) - Data: 6E A5 50 02  returns 0x01 (0000ms, 11359ms total)
T5E9C 3403:177 JLINK_ReadMemEx(0x20000064, 0x0004 Bytes, ..., Flags = 0x02000000) -- CPU_ReadMem(4 bytes @ 0x20000064) - Data: 00 14 00 40  returns 0x04 (0000ms, 11359ms total)
T5E9C 3403:177 JLINK_ReadMemEx(0x20000080, 0x0001 Bytes, ..., Flags = 0x02000000) -- CPU_ReadMem(1 bytes @ 0x20000080) - Data: 00  returns 0x01 (0001ms, 11360ms total)
T5E9C 3403:178 JLINK_ReadMemEx(0x200000A0, 0x0001 Bytes, ..., Flags = 0x02000000) -- CPU_ReadMem(1 bytes @ 0x200000A0) - Data: 00  returns 0x01 (0000ms, 11360ms total)
T5E9C 3403:178 JLINK_ReadMemEx(0x200000A1, 0x0001 Bytes, ..., Flags = 0x02000000) -- CPU_ReadMem(1 bytes @ 0x200000A1) - Data: 01  returns 0x01 (0000ms, 11360ms total)
T5E9C 3403:178 JLINK_ReadMemEx(0x20000000, 0x0004 Bytes, ..., Flags = 0x02000000) -- CPU_ReadMem(4 bytes @ 0x20000000) - Data: 07 00 00 00  returns 0x04 (0001ms, 11361ms total)
T1CE8 3403:179 JLINK_IsHalted()  returns FALSE (0000ms, 11361ms total)
T1CE8 3403:281 JLINK_IsHalted()  returns FALSE (0000ms, 11361ms total)
T1CE8 3403:381 JLINK_IsHalted()  returns FALSE (0000ms, 11361ms total)
T5E9C 3403:467 JLINK_ReadMemEx(0x20000064, 0x0004 Bytes, ..., Flags = 0x02000000) -- CPU_ReadMem(4 bytes @ 0x20000064) - Data: 00 14 00 40  returns 0x04 (0001ms, 11362ms total)
T5E9C 3403:468 JLINK_ReadMemEx(0x20000068, 0x0004 Bytes, ..., Flags = 0x02000000) -- CPU_ReadMem(4 bytes @ 0x20000068) - Data: DF 2E 00 00  returns 0x04 (0000ms, 11362ms total)
T5E9C 3403:468 JLINK_ReadMemEx(0x2000006C, 0x0004 Bytes, ..., Flags = 0x02000000) -- CPU_ReadMem(4 bytes @ 0x2000006C) - Data: 00 00 00 00  returns 0x04 (0001ms, 11363ms total)
T5E9C 3403:469 JLINK_ReadMemEx(0x20000070, 0x0004 Bytes, ..., Flags = 0x02000000) -- CPU_ReadMem(4 bytes @ 0x20000070) - Data: 0F 27 00 00  returns 0x04 (0000ms, 11363ms total)
T5E9C 3403:469 JLINK_ReadMemEx(0x20000074, 0x0004 Bytes, ..., Flags = 0x02000000) -- CPU_ReadMem(4 bytes @ 0x20000074) - Data: 00 00 00 00  returns 0x04 (0000ms, 11363ms total)
T5E9C 3403:469 JLINK_ReadMemEx(0x20000078, 0x0004 Bytes, ..., Flags = 0x02000000) -- CPU_ReadMem(4 bytes @ 0x20000078) - Data: 00 00 00 00  returns 0x04 (0001ms, 11364ms total)
T5E9C 3403:470 JLINK_ReadMemEx(0x2000007C, 0x0004 Bytes, ..., Flags = 0x02000000) -- CPU_ReadMem(4 bytes @ 0x2000007C) - Data: 00 00 00 00  returns 0x04 (0000ms, 11364ms total)
T5E9C 3403:470 JLINK_ReadMemEx(0x20000080, 0x0004 Bytes, ..., Flags = 0x02000000) -- CPU_ReadMem(4 bytes @ 0x20000080) - Data: 00 00 00 00  returns 0x04 (0001ms, 11365ms total)
T5E9C 3403:471 JLINK_ReadMemEx(0x20000084, 0x0004 Bytes, ..., Flags = 0x02000000) -- CPU_ReadMem(4 bytes @ 0x20000084) - Data: 00 00 00 00  returns 0x04 (0000ms, 11365ms total)
T5E9C 3403:471 JLINK_ReadMemEx(0x20000088, 0x0004 Bytes, ..., Flags = 0x02000000) -- CPU_ReadMem(4 bytes @ 0x20000088) - Data: 00 00 00 00  returns 0x04 (0000ms, 11365ms total)
T5E9C 3403:471 JLINK_ReadMemEx(0x2000008C, 0x0004 Bytes, ..., Flags = 0x02000000) -- CPU_ReadMem(4 bytes @ 0x2000008C) - Data: 00 00 00 00  returns 0x04 (0001ms, 11366ms total)
T5E9C 3403:472 JLINK_ReadMemEx(0x20000090, 0x0004 Bytes, ..., Flags = 0x02000000) -- CPU_ReadMem(4 bytes @ 0x20000090) - Data: 00 00 00 00  returns 0x04 (0000ms, 11366ms total)
T5E9C 3403:472 JLINK_ReadMemEx(0x20000094, 0x0004 Bytes, ..., Flags = 0x02000000) -- CPU_ReadMem(4 bytes @ 0x20000094) - Data: 00 00 00 00  returns 0x04 (0000ms, 11366ms total)
T5E9C 3403:472 JLINK_ReadMemEx(0x20000098, 0x0004 Bytes, ..., Flags = 0x02000000) -- CPU_ReadMem(4 bytes @ 0x20000098) - Data: 00 00 00 00  returns 0x04 (0001ms, 11367ms total)
T5E9C 3403:473 JLINK_ReadMemEx(0x2000009C, 0x0004 Bytes, ..., Flags = 0x02000000) -- CPU_ReadMem(4 bytes @ 0x2000009C) - Data: 00 00 00 00  returns 0x04 (0000ms, 11367ms total)
T5E9C 3403:473 JLINK_ReadMemEx(0x200000A0, 0x0004 Bytes, ..., Flags = 0x02000000) -- CPU_ReadMem(4 bytes @ 0x200000A0) - Data: 00 01 00 00  returns 0x04 (0000ms, 11367ms total)
T5E9C 3403:473 JLINK_ReadMemEx(0x200000A4, 0x0004 Bytes, ..., Flags = 0x02000000) -- CPU_ReadMem(4 bytes @ 0x200000A4) - Data: 00 00 00 00  returns 0x04 (0001ms, 11368ms total)
T5E9C 3403:474 JLINK_ReadMemEx(0x200000A8, 0x0004 Bytes, ..., Flags = 0x02000000) -- CPU_ReadMem(4 bytes @ 0x200000A8) - Data: 00 00 00 00  returns 0x04 (0000ms, 11368ms total)
T5E9C 3403:474 JLINK_ReadMemEx(0x200000AC, 0x0004 Bytes, ..., Flags = 0x02000000) -- CPU_ReadMem(4 bytes @ 0x200000AC) - Data: 00 00 00 00  returns 0x04 (0001ms, 11369ms total)
T5E9C 3403:475 JLINK_ReadMemEx(0x200000B0, 0x0004 Bytes, ..., Flags = 0x02000000) -- CPU_ReadMem(4 bytes @ 0x200000B0) - Data: 00 00 00 00  returns 0x04 (0000ms, 11369ms total)
T5E9C 3403:475 JLINK_ReadMemEx(0x200000B4, 0x0004 Bytes, ..., Flags = 0x02000000) -- CPU_ReadMem(4 bytes @ 0x200000B4) - Data: 00 00 00 00  returns 0x04 (0000ms, 11369ms total)
T5E9C 3403:475 JLINK_ReadMemEx(0x200000B8, 0x0004 Bytes, ..., Flags = 0x02000000) -- CPU_ReadMem(4 bytes @ 0x200000B8) - Data: 00 00 00 00  returns 0x04 (0001ms, 11370ms total)
T5E9C 3403:476 JLINK_ReadMemEx(0x200000BC, 0x0004 Bytes, ..., Flags = 0x02000000) -- CPU_ReadMem(4 bytes @ 0x200000BC) - Data: 00 00 00 00  returns 0x04 (0000ms, 11370ms total)
T5E9C 3403:476 JLINK_ReadMemEx(0x200000C0, 0x0004 Bytes, ..., Flags = 0x02000000) -- CPU_ReadMem(4 bytes @ 0x200000C0) - Data: 00 00 00 00  returns 0x04 (0000ms, 11370ms total)
T5E9C 3403:476 JLINK_ReadMemEx(0x200000C4, 0x0004 Bytes, ..., Flags = 0x02000000) -- CPU_ReadMem(4 bytes @ 0x200000C4) - Data: 00 00 00 00  returns 0x04 (0001ms, 11371ms total)
T5E9C 3403:477 JLINK_ReadMemEx(0x200000C8, 0x0004 Bytes, ..., Flags = 0x02000000) -- CPU_ReadMem(4 bytes @ 0x200000C8) - Data: 00 00 00 00  returns 0x04 (0000ms, 11371ms total)
T5E9C 3403:477 JLINK_ReadMemEx(0x200000CC, 0x0004 Bytes, ..., Flags = 0x02000000) -- CPU_ReadMem(4 bytes @ 0x200000CC) - Data: 00 00 00 00  returns 0x04 (0000ms, 11371ms total)
T5E9C 3403:477 JLINK_ReadMemEx(0x40001400, 0x0004 Bytes, ..., Flags = 0x02000000) -- CPU_ReadMem(4 bytes @ 0x40001400) - Data: 01 00 00 00  returns 0x04 (0001ms, 11372ms total)
T5E9C 3403:478 JLINK_ReadMemEx(0x40001404, 0x0004 Bytes, ..., Flags = 0x02000000) -- CPU_ReadMem(4 bytes @ 0x40001404) - Data: 00 00 00 00  returns 0x04 (0000ms, 11372ms total)
T5E9C 3403:478 JLINK_ReadMemEx(0x40001408, 0x0004 Bytes, ..., Flags = 0x02000000) -- CPU_ReadMem(4 bytes @ 0x40001408) - Data: 00 00 00 00  returns 0x04 (0001ms, 11373ms total)
T5E9C 3403:479 JLINK_ReadMemEx(0x4000140C, 0x0004 Bytes, ..., Flags = 0x02000000) -- CPU_ReadMem(4 bytes @ 0x4000140C) - Data: 01 00 00 00  returns 0x04 (0000ms, 11373ms total)
T5E9C 3403:479 JLINK_ReadMemEx(0x40001410, 0x0004 Bytes, ..., Flags = 0x02000000) -- CPU_ReadMem(4 bytes @ 0x40001410) - Data: 00 00 00 00  returns 0x04 (0000ms, 11373ms total)
T5E9C 3403:479 JLINK_ReadMemEx(0x40001414, 0x0004 Bytes, ..., Flags = 0x02000000) -- CPU_ReadMem(4 bytes @ 0x40001414) - Data: 00 00 00 00  returns 0x04 (0001ms, 11374ms total)
T5E9C 3403:480 JLINK_ReadMemEx(0x40001418, 0x0004 Bytes, ..., Flags = 0x02000000) -- CPU_ReadMem(4 bytes @ 0x40001418) - Data: 00 00 00 00  returns 0x04 (0000ms, 11374ms total)
T5E9C 3403:480 JLINK_ReadMemEx(0x4000141C, 0x0004 Bytes, ..., Flags = 0x02000000) -- CPU_ReadMem(4 bytes @ 0x4000141C) - Data: 00 00 00 00  returns 0x04 (0000ms, 11374ms total)
T5E9C 3403:480 JLINK_ReadMemEx(0x40001420, 0x0004 Bytes, ..., Flags = 0x02000000) -- CPU_ReadMem(4 bytes @ 0x40001420) - Data: 00 00 00 00  returns 0x04 (0001ms, 11375ms total)
T5E9C 3403:481 JLINK_ReadMemEx(0x40001424, 0x0004 Bytes, ..., Flags = 0x02000000) -- CPU_ReadMem(4 bytes @ 0x40001424) - Data: BE 1E 00 00  returns 0x04 (0000ms, 11375ms total)
T5E9C 3403:481 JLINK_ReadMemEx(0x40001428, 0x0004 Bytes, ..., Flags = 0x02000000) -- CPU_ReadMem(4 bytes @ 0x40001428) - Data: DF 2E 00 00  returns 0x04 (0000ms, 11375ms total)
T5E9C 3403:481 JLINK_ReadMemEx(0x4000142C, 0x0004 Bytes, ..., Flags = 0x02000000) -- CPU_ReadMem(4 bytes @ 0x4000142C) - Data: 0F 27 00 00  returns 0x04 (0001ms, 11376ms total)
T5E9C 3403:482 JLINK_ReadMemEx(0x40001430, 0x0004 Bytes, ..., Flags = 0x02000000) -- CPU_ReadMem(4 bytes @ 0x40001430) - Data: 00 00 00 00  returns 0x04 (0000ms, 11376ms total)
T1CE8 3403:482 JLINK_IsHalted()  returns FALSE (0001ms, 11377ms total)
T5E9C 3403:483 JLINK_ReadMemEx(0x40001434, 0x0004 Bytes, ..., Flags = 0x02000000) -- CPU_ReadMem(4 bytes @ 0x40001434) - Data: 00 00 00 00  returns 0x04 (0000ms, 11376ms total)
T5E9C 3403:483 JLINK_ReadMemEx(0x40001438, 0x0004 Bytes, ..., Flags = 0x02000000) -- CPU_ReadMem(4 bytes @ 0x40001438) - Data: 00 00 00 00  returns 0x04 (0000ms, 11376ms total)
T5E9C 3403:483 JLINK_ReadMemEx(0x4000143C, 0x0004 Bytes, ..., Flags = 0x02000000) -- CPU_ReadMem(4 bytes @ 0x4000143C) - Data: 00 00 00 00  returns 0x04 (0001ms, 11377ms total)
T5E9C 3403:484 JLINK_ReadMemEx(0x40001440, 0x0004 Bytes, ..., Flags = 0x02000000) -- CPU_ReadMem(4 bytes @ 0x40001440) - Data: 00 00 00 00  returns 0x04 (0000ms, 11377ms total)
T5E9C 3403:484 JLINK_ReadMemEx(0x40001444, 0x0004 Bytes, ..., Flags = 0x02000000) -- CPU_ReadMem(4 bytes @ 0x40001444) - Data: 00 00 00 00  returns 0x04 (0001ms, 11378ms total)
T5E9C 3403:485 JLINK_ReadMemEx(0x40001448, 0x0004 Bytes, ..., Flags = 0x02000000) -- CPU_ReadMem(4 bytes @ 0x40001448) - Data: 00 00 00 00  returns 0x04 (0000ms, 11378ms total)
T5E9C 3403:485 JLINK_ReadMemEx(0x4000144C, 0x0004 Bytes, ..., Flags = 0x02000000) -- CPU_ReadMem(4 bytes @ 0x4000144C) - Data: 00 00 00 00  returns 0x04 (0001ms, 11379ms total)
T5E9C 3403:486 JLINK_ReadMemEx(0x40001450, 0x0004 Bytes, ..., Flags = 0x02000000) -- CPU_ReadMem(4 bytes @ 0x40001450) - Data: 00 00 00 00  returns 0x04 (0000ms, 11379ms total)
T5E9C 3403:486 JLINK_ReadMemEx(0x40001454, 0x0004 Bytes, ..., Flags = 0x02000000) -- CPU_ReadMem(4 bytes @ 0x40001454) - Data: 00 00 00 00  returns 0x04 (0000ms, 11379ms total)
T5E9C 3403:486 JLINK_ReadMemEx(0x40001458, 0x0004 Bytes, ..., Flags = 0x02000000) -- CPU_ReadMem(4 bytes @ 0x40001458) - Data: 00 00 00 00  returns 0x04 (0001ms, 11380ms total)
T5E9C 3403:487 JLINK_ReadMemEx(0x4000145C, 0x0004 Bytes, ..., Flags = 0x02000000) -- CPU_ReadMem(4 bytes @ 0x4000145C) - Data: 00 00 00 00  returns 0x04 (0000ms, 11380ms total)
T5E9C 3403:487 JLINK_ReadMemEx(0x40001460, 0x0004 Bytes, ..., Flags = 0x02000000) -- CPU_ReadMem(4 bytes @ 0x40001460) - Data: 00 00 00 00  returns 0x04 (0001ms, 11381ms total)
T5E9C 3403:488 JLINK_ReadMemEx(0x40001464, 0x0004 Bytes, ..., Flags = 0x02000000) -- CPU_ReadMem(4 bytes @ 0x40001464) - Data: 00 00 00 00  returns 0x04 (0000ms, 11381ms total)
T5E9C 3403:488 JLINK_ReadMemEx(0x40001468, 0x0004 Bytes, ..., Flags = 0x02000000) -- CPU_ReadMem(4 bytes @ 0x40001468) - Data: 00 00 00 00  returns 0x04 (0000ms, 11381ms total)
T5E9C 3403:505 JLINK_ReadMemEx(0x40001400, 0x0004 Bytes, ..., Flags = 0x02000000) -- CPU_ReadMem(4 bytes @ 0x40001400) - Data: 01 00 00 00  returns 0x04 (0000ms, 11381ms total)
T5E9C 3403:505 JLINK_ReadMemEx(0x40001404, 0x0004 Bytes, ..., Flags = 0x02000000) -- CPU_ReadMem(4 bytes @ 0x40001404) - Data: 00 00 00 00  returns 0x04 (0000ms, 11381ms total)
T5E9C 3403:506 JLINK_ReadMemEx(0x40001408, 0x0004 Bytes, ..., Flags = 0x02000000) -- CPU_ReadMem(4 bytes @ 0x40001408) - Data: 00 00 00 00  returns 0x04 (0000ms, 11382ms total)
T5E9C 3403:506 JLINK_ReadMemEx(0x4000140C, 0x0004 Bytes, ..., Flags = 0x02000000) -- CPU_ReadMem(4 bytes @ 0x4000140C) - Data: 01 00 00 00  returns 0x04 (0000ms, 11382ms total)
T5E9C 3403:506 JLINK_ReadMemEx(0x40001410, 0x0004 Bytes, ..., Flags = 0x02000000) -- CPU_ReadMem(4 bytes @ 0x40001410) - Data: 00 00 00 00  returns 0x04 (0001ms, 11383ms total)
T5E9C 3403:507 JLINK_ReadMemEx(0x40001414, 0x0004 Bytes, ..., Flags = 0x02000000) -- CPU_ReadMem(4 bytes @ 0x40001414) - Data: 00 00 00 00  returns 0x04 (0000ms, 11383ms total)
T5E9C 3403:507 JLINK_ReadMemEx(0x40001418, 0x0004 Bytes, ..., Flags = 0x02000000) -- CPU_ReadMem(4 bytes @ 0x40001418) - Data: 00 00 00 00  returns 0x04 (0000ms, 11383ms total)
T5E9C 3403:507 JLINK_ReadMemEx(0x4000141C, 0x0004 Bytes, ..., Flags = 0x02000000) -- CPU_ReadMem(4 bytes @ 0x4000141C) - Data: 00 00 00 00  returns 0x04 (0001ms, 11384ms total)
T5E9C 3403:508 JLINK_ReadMemEx(0x40001420, 0x0004 Bytes, ..., Flags = 0x02000000) -- CPU_ReadMem(4 bytes @ 0x40001420) - Data: 00 00 00 00  returns 0x04 (0000ms, 11384ms total)
T5E9C 3403:508 JLINK_ReadMemEx(0x40001424, 0x0004 Bytes, ..., Flags = 0x02000000) -- CPU_ReadMem(4 bytes @ 0x40001424) - Data: 08 1F 00 00  returns 0x04 (0001ms, 11385ms total)
T5E9C 3403:509 JLINK_ReadMemEx(0x40001428, 0x0004 Bytes, ..., Flags = 0x02000000) -- CPU_ReadMem(4 bytes @ 0x40001428) - Data: DF 2E 00 00  returns 0x04 (0000ms, 11385ms total)
T5E9C 3403:509 JLINK_ReadMemEx(0x4000142C, 0x0004 Bytes, ..., Flags = 0x02000000) -- CPU_ReadMem(4 bytes @ 0x4000142C) - Data: 0F 27 00 00  returns 0x04 (0000ms, 11385ms total)
T5E9C 3403:509 JLINK_ReadMemEx(0x40001430, 0x0004 Bytes, ..., Flags = 0x02000000) -- CPU_ReadMem(4 bytes @ 0x40001430) - Data: 00 00 00 00  returns 0x04 (0001ms, 11386ms total)
T5E9C 3403:510 JLINK_ReadMemEx(0x40001434, 0x0004 Bytes, ..., Flags = 0x02000000) -- CPU_ReadMem(4 bytes @ 0x40001434) - Data: 00 00 00 00  returns 0x04 (0000ms, 11386ms total)
T5E9C 3403:510 JLINK_ReadMemEx(0x40001438, 0x0004 Bytes, ..., Flags = 0x02000000) -- CPU_ReadMem(4 bytes @ 0x40001438) - Data: 00 00 00 00  returns 0x04 (0000ms, 11386ms total)
T5E9C 3403:510 JLINK_ReadMemEx(0x4000143C, 0x0004 Bytes, ..., Flags = 0x02000000) -- CPU_ReadMem(4 bytes @ 0x4000143C) - Data: 00 00 00 00  returns 0x04 (0001ms, 11387ms total)
T5E9C 3403:511 JLINK_ReadMemEx(0x40001440, 0x0004 Bytes, ..., Flags = 0x02000000) -- CPU_ReadMem(4 bytes @ 0x40001440) - Data: 00 00 00 00  returns 0x04 (0000ms, 11387ms total)
T5E9C 3403:511 JLINK_ReadMemEx(0x40001444, 0x0004 Bytes, ..., Flags = 0x02000000) -- CPU_ReadMem(4 bytes @ 0x40001444) - Data: 00 00 00 00  returns 0x04 (0000ms, 11387ms total)
T5E9C 3403:511 JLINK_ReadMemEx(0x40001448, 0x0004 Bytes, ..., Flags = 0x02000000) -- CPU_ReadMem(4 bytes @ 0x40001448) - Data: 00 00 00 00  returns 0x04 (0001ms, 11388ms total)
T5E9C 3403:512 JLINK_ReadMemEx(0x4000144C, 0x0004 Bytes, ..., Flags = 0x02000000) -- CPU_ReadMem(4 bytes @ 0x4000144C) - Data: 00 00 00 00  returns 0x04 (0000ms, 11388ms total)
T5E9C 3403:512 JLINK_ReadMemEx(0x40001450, 0x0004 Bytes, ..., Flags = 0x02000000) -- CPU_ReadMem(4 bytes @ 0x40001450) - Data: 00 00 00 00  returns 0x04 (0001ms, 11389ms total)
T5E9C 3403:513 JLINK_ReadMemEx(0x40001454, 0x0004 Bytes, ..., Flags = 0x02000000) -- CPU_ReadMem(4 bytes @ 0x40001454) - Data: 00 00 00 00  returns 0x04 (0000ms, 11389ms total)
T5E9C 3403:513 JLINK_ReadMemEx(0x40001458, 0x0004 Bytes, ..., Flags = 0x02000000) -- CPU_ReadMem(4 bytes @ 0x40001458) - Data: 00 00 00 00  returns 0x04 (0000ms, 11389ms total)
T5E9C 3403:513 JLINK_ReadMemEx(0x4000145C, 0x0004 Bytes, ..., Flags = 0x02000000) -- CPU_ReadMem(4 bytes @ 0x4000145C) - Data: 00 00 00 00  returns 0x04 (0001ms, 11390ms total)
T5E9C 3403:514 JLINK_ReadMemEx(0x40001460, 0x0004 Bytes, ..., Flags = 0x02000000) -- CPU_ReadMem(4 bytes @ 0x40001460) - Data: 00 00 00 00  returns 0x04 (0000ms, 11390ms total)
T5E9C 3403:514 JLINK_ReadMemEx(0x40001464, 0x0004 Bytes, ..., Flags = 0x02000000) -- CPU_ReadMem(4 bytes @ 0x40001464) - Data: 00 00 00 00  returns 0x04 (0000ms, 11390ms total)
